
**** 12/14/24 15:53:12 ******* PSpice Lite (March 2016) ******* ID# 10813 ****

 ** Profile: "SCHEMATIC1-Repetor"  [ C:\Users\LENOVO\Desktop\Teams\PSPICE\Schematic_PSPICE-PSpiceFiles\SCHEMATIC1\Repetor.sim ] 


 ****     CIRCUIT DESCRIPTION


******************************************************************************




** Creating circuit file "Repetor.cir" 
** WARNING: THIS AUTOMATICALLY GENERATED FILE MAY BE OVERWRITTEN BY SUBSEQUENT SIMULATIONS

*Libraries: 
* Profile Libraries :
* Local Libraries :
.LIB "../../../lib_smls14bet/smls14bet.lib" 
* From [PSPICE NETLIST] section of C:\Users\LENOVO\AppData\Roaming\SPB_Data\cdssetup\OrCAD_PSpice\17.2.0\PSpice.ini file:
.lib "nomd.lib" 

*Analysis directives: 
.TRAN  0 5ms 0 1u 
.OPTIONS ADVCONV
.PROBE64 V(alias(*)) I(alias(*)) W(alias(*)) D(alias(*)) NOISE(alias(*)) 
.INC "..\SCHEMATIC1.net" 



**** INCLUDING SCHEMATIC1.net ****
* source SCHEMATIC_PSPICE
R_R9         N74325 N74079  22k TC=0,0 
R_R1         N74183 N74079  680 TC=0,0 
V_V3         N74189 0 0Vdc
R_Rl2         N74867 0  330 TC=0,0 
R_R2         N74065 N74079  3.3k TC=0,0 
R_Rl1         N74867 N74623  470 TC=0,0 
C_C4         N74325 N74319  4.7u  TC=0,0 
V_V1         N75011 0  AC 30mV
+SIN 0 30mV 3kHz 0 0 0
R_R6         N74319 N74079  2k TC=0,0 
R_R4         N74847 N74585  1k TC=0,0 
C_C6         N74505 N74623  4.7u  TC=0,0 
C_C2         N74585 N74847  4.7u  TC=0,0 
R_R7         N74499 N74079  10k TC=0,0 
R_Rg2         N75011 N74833  10 TC=0,0 
C_C1         N74065 N74553  4.7u  TC=0,0 
R_R3         0 N74065  1k TC=0,0 
R_R8         0 N74499  10k TC=0,0 
R_R12         0 N74505  1k TC=0,0 
Q_Q3         N74079 N74325 N74505 BC817-25 
D_D1         N74065 N74189 D1N4148_1 
R_R5         0 N74847  33 TC=0,0 
R_R10         N74855 N74325  10k TC=0,0 
C_C5         N74079 N74325  5.6n  TC=0,0 
C_C3         N74499 0  4.7u  TC=0,0 
R_Rg1         N74833 N74553  51 TC=0,0 
Q_Q1         N74435 N74065 N74585 BC817-25 
V_V2         N74079 0 13Vdc
R_R11         0 N74855  1k TC=0,0 
Q_Q2         N74319 N74499 N74435 BC817-25 
D_D2         N74183 0 SMLS14BET 

**** RESUMING Repetor.cir ****
.END


WARNING(ORPSIM-15246): Library index file nomd.ind does not have the correct format

INFO(ORPSIM-15422): Making new index file nomd.ind for library file nomd.lib.

Index has 34104 entries from 205 file(s).

**** 12/14/24 15:53:12 ******* PSpice Lite (March 2016) ******* ID# 10813 ****

 ** Profile: "SCHEMATIC1-Repetor"  [ C:\Users\LENOVO\Desktop\Teams\PSPICE\Schematic_PSPICE-PSpiceFiles\SCHEMATIC1\Repetor.sim ] 


 ****     Diode MODEL PARAMETERS


******************************************************************************




               SMLS14BET       D1N4148_1       
          IS  405.890000E-24    2.682000E-09 
           N    2.4475          1.836        
         ISR                    1.565000E-09 
         IKF     .98529          .04417      
          BV                  100            
         IBV                  100.000000E-06 
          RS   15.483            .5664       
          TT                   11.540000E-09 
         CJO   38.500000E-12    4.000000E-12 
          VJ     .87273          .5          
           M     .20189          .3333       
          EG    2.638                        


**** 12/14/24 15:53:12 ******* PSpice Lite (March 2016) ******* ID# 10813 ****

 ** Profile: "SCHEMATIC1-Repetor"  [ C:\Users\LENOVO\Desktop\Teams\PSPICE\Schematic_PSPICE-PSpiceFiles\SCHEMATIC1\Repetor.sim ] 


 ****     BJT MODEL PARAMETERS


******************************************************************************




               BC817-25        
               NPN             
       LEVEL    1            
          IS   32.530000E-15 
          BF  294.4          
          NF    1            
         VAF  100            
         IKF     .8311       
         ISE  318.500000E-15 
          NE    1.642        
          BR    5.855        
          NR    1            
         IKR     .1075       
         ISC  199.700000E-15 
          NC    2.09         
          NK     .5663       
         ISS    0            
          RE    0            
          RC     .4196       
         CJE   71.140000E-12 
         VJE     .5          
         MJE     .3333       
         CJC   24.290000E-12 
         VJC     .5          
         MJC     .3333       
        XCJC    1            
         CJS    0            
         VJS     .75         
          TF  660.800000E-12 
         XTF   88.29         
         VTF   10            
         ITF    2.569        
          TR   10.000000E-09 
         XTB    1.5          
          KF    0            
          AF    1            
          CN    2.42         
           D     .87         


**** 12/14/24 15:53:12 ******* PSpice Lite (March 2016) ******* ID# 10813 ****

 ** Profile: "SCHEMATIC1-Repetor"  [ C:\Users\LENOVO\Desktop\Teams\PSPICE\Schematic_PSPICE-PSpiceFiles\SCHEMATIC1\Repetor.sim ] 


 ****     INITIAL TRANSIENT SOLUTION       TEMPERATURE =   27.000 DEG C


******************************************************************************



 NODE   VOLTAGE     NODE   VOLTAGE     NODE   VOLTAGE     NODE   VOLTAGE


(N74065)     .6599 (N74079)   13.0000 (N74183)    3.0768 (N74189)    0.0000     

(N74319)   12.8130 (N74325)    4.2394 (N74435)    5.9359 (N74499)    6.4976     

(N74505)    3.5839 (N74553)    0.0000 (N74585)     .0977 (N74623)    0.0000     

(N74833)    0.0000 (N74847)     .0031 (N74855)     .3854 (N74867)    0.0000     

(N75011)    0.0000 




    VOLTAGE SOURCE CURRENTS
    NAME         CURRENT

    V_V3         3.079E-03
    V_V1         0.000E+00
    V_V2        -2.305E-02

    TOTAL POWER DISSIPATION   3.00E-01  WATTS



          JOB CONCLUDED

**** 12/14/24 15:53:12 ******* PSpice Lite (March 2016) ******* ID# 10813 ****

 ** Profile: "SCHEMATIC1-Repetor"  [ C:\Users\LENOVO\Desktop\Teams\PSPICE\Schematic_PSPICE-PSpiceFiles\SCHEMATIC1\Repetor.sim ] 


 ****     JOB STATISTICS SUMMARY


******************************************************************************



  Total job time (using Solver 1)   =        3.69
